Index       TIME              V(IN)            V(OUT1)           V(OUT)             V(N3)      
0        0.00000000e+00    0.00000000e+00    1.59624926e-06    1.59624927e-06    6.99998283e-01
1        5.00000000e-13    0.00000000e+00    1.59624926e-06    1.59624927e-06    6.99998283e-01
2        1.50000000e-12    0.00000000e+00    1.59624926e-06    1.59624927e-06    6.99998283e-01
3        3.50000000e-12    0.00000000e+00    1.59624923e-06    1.59624924e-06    6.99998283e-01
4        7.50000000e-12    0.00000000e+00    1.59624927e-06    1.59624929e-06    6.99998283e-01
5        1.55000000e-11    0.00000000e+00    1.59624926e-06    1.59624925e-06    6.99998283e-01
6        2.55000000e-11    0.00000000e+00    1.59624926e-06    1.59624928e-06    6.99998283e-01
7        3.55000000e-11    0.00000000e+00    1.59624926e-06    1.59624926e-06    6.99998283e-01
8        4.55000000e-11    0.00000000e+00    1.59624927e-06    1.59624928e-06    6.99998283e-01
9        5.55000000e-11    0.00000000e+00    1.59624925e-06    1.59624925e-06    6.99998283e-01
10       6.55000000e-11    0.00000000e+00    1.59624927e-06    1.59624929e-06    6.99998283e-01
11       7.55000000e-11    0.00000000e+00    1.59624926e-06    1.59624924e-06    6.99998283e-01
12       8.55000000e-11    0.00000000e+00    1.59624926e-06    1.59624929e-06    6.99998283e-01
13       9.55000000e-11    0.00000000e+00    1.59624926e-06    1.59624925e-06    6.99998283e-01
14       1.00000000e-10    0.00000000e+00    1.59624927e-06    1.59624928e-06    6.99998283e-01
15       1.00025000e-10    1.75000000e-02    3.61885674e-04    1.43693201e-05    7.00006010e-01
16       1.00047500e-10    3.32500000e-02    8.68592366e-04    3.95362027e-05    7.00022187e-01
17       1.00070000e-10    4.90000000e-02    1.45724626e-03    7.22695711e-05    7.00043607e-01
18       1.00115000e-10    8.05000000e-02    3.02130856e-03    1.87012105e-04    7.00121496e-01
19       1.00160000e-10    1.12000000e-01    4.90904798e-03    3.66643693e-04    7.00245795e-01
20       1.00205000e-10    1.43500000e-01    6.91726614e-03    5.96815517e-04    7.00403860e-01
21       1.00295000e-10    2.06500000e-01    1.08527473e-02    1.10430115e-03    7.00725722e-01
22       1.00385000e-10    2.69500000e-01    1.44829219e-02    1.56137789e-03    7.00955940e-01
23       1.00475000e-10    3.32500000e-01    1.77640729e-02    1.88170195e-03    7.01031717e-01
24       1.00655000e-10    4.58500000e-01    2.32950240e-02    2.09641917e-03    7.00818229e-01
25       1.00835000e-10    5.84500000e-01    2.69771427e-02    1.84276041e-03    7.00331266e-01
26       1.01000000e-10    7.00000000e-01    2.73567294e-02    1.23469607e-03    6.99773207e-01
27       1.01010955e-10    7.00000000e-01    2.71335496e-02    1.17755926e-03    6.99731387e-01
28       1.01020752e-10    7.00000000e-01    2.68728203e-02    1.12294055e-03    6.99692365e-01
29       1.01030550e-10    7.00000000e-01    2.65823641e-02    1.06644379e-03    6.99652440e-01
30       1.01050144e-10    7.00000000e-01    2.58316049e-02    9.40919468e-04    6.99566144e-01
31       1.01089333e-10    7.00000000e-01    2.37511261e-02    6.31602626e-04    6.99360778e-01
32       1.01128523e-10    7.00000000e-01    2.10754858e-02    2.40894693e-04    6.99107979e-01
33       1.01167712e-10    7.00000000e-01    1.80252980e-02   -2.22995519e-04    6.98814248e-01
34       1.01246090e-10    7.00000000e-01    1.14600197e-02   -1.27061164e-03    6.98191603e-01
35       1.01324468e-10    7.00000000e-01    4.78733249e-03   -2.33505886e-03    6.97645540e-01
36       1.01402847e-10    7.00000000e-01   -1.61605578e-03   -3.26401705e-03    6.97296126e-01
37       1.01481225e-10    7.00000000e-01   -7.61152543e-03   -3.97542211e-03    6.97186037e-01
38       1.01637982e-10    7.00000000e-01   -1.82903019e-02   -4.72116114e-03    6.97542861e-01
39       1.01794738e-10    7.00000000e-01   -2.73126951e-02   -4.73071153e-03    6.98354077e-01
40       1.01951495e-10    7.00000000e-01   -3.49042200e-02   -4.28504085e-03    6.99248461e-01
41       1.02265008e-10    7.00000000e-01   -4.68776926e-02   -2.94724175e-03    7.00556429e-01
42       1.02578521e-10    7.00000000e-01   -5.56497939e-02   -1.62323615e-03    7.01092084e-01
43       1.02892034e-10    7.00000000e-01   -6.21182294e-02   -6.14379531e-04    7.01103950e-01
44       1.03205548e-10    7.00000000e-01   -6.57026873e-02    1.95729886e-04    7.00971700e-01
45       1.03519061e-10    7.00000000e-01   -6.37865413e-02    1.16489991e-03    7.01008277e-01
46       1.03801223e-10    7.00000000e-01   -5.50248369e-02    2.41459967e-03    7.01269613e-01
47       1.04055169e-10    7.00000000e-01   -3.99305684e-02    3.85251045e-03    7.01595668e-01
48       1.04309114e-10    7.00000000e-01   -1.79153490e-02    5.40479990e-03    7.01842335e-01
49       1.04563060e-10    7.00000000e-01    9.84113454e-03    6.74934665e-03    7.01833255e-01
50       1.04817006e-10    7.00000000e-01    4.21894959e-02    7.64523155e-03    7.01525369e-01
51       1.05070951e-10    7.00000000e-01    7.81580308e-02    8.07381460e-03    7.01051010e-01
52       1.05324897e-10    7.00000000e-01    1.16943718e-01    8.17090527e-03    7.00585444e-01
53       1.05578843e-10    7.00000000e-01    1.57729195e-01    8.11749533e-03    7.00248862e-01
54       1.05832789e-10    7.00000000e-01    1.99828270e-01    8.01999350e-03    7.00053217e-01
55       1.06340680e-10    7.00000000e-01    2.84900866e-01    7.49002353e-03    6.99727015e-01
56       1.06848571e-10    7.00000000e-01    3.66147650e-01    5.33305587e-03    6.98808550e-01
57       1.07305674e-10    7.00000000e-01    4.32265068e-01    5.57139333e-04    6.97059522e-01
58       1.07712107e-10    7.00000000e-01    4.83307357e-01   -6.84566242e-03    6.94816555e-01
59       1.08070140e-10    7.00000000e-01    5.20274940e-01   -1.59120253e-02    6.92624054e-01
60       1.08392371e-10    7.00000000e-01    5.46647632e-01   -2.50321231e-02    6.91236943e-01
61       1.08714601e-10    7.00000000e-01    5.67285221e-01   -3.36956775e-02    6.90929064e-01
62       1.09036832e-10    7.00000000e-01    5.83315889e-01   -4.13091511e-02    6.91445346e-01
63       1.09359062e-10    7.00000000e-01    5.95632925e-01   -4.78015273e-02    6.92343897e-01
64       1.09681292e-10    7.00000000e-01    6.05057088e-01   -5.33710941e-02    6.93281706e-01
65       1.10003523e-10    7.00000000e-01    6.12257979e-01   -5.82167152e-02    6.94109714e-01
66       1.10325753e-10    7.00000000e-01    6.18052857e-01   -6.18675758e-02    6.95178927e-01
67       1.10647984e-10    7.00000000e-01    6.23195473e-01   -6.24734562e-02    6.97516270e-01
68       1.10970214e-10    7.00000000e-01    6.28204081e-01   -5.67092373e-02    7.02519657e-01
69       1.11292444e-10    7.00000000e-01    6.33351054e-01   -4.03742178e-02    7.11350415e-01
70       1.11582452e-10    7.00000000e-01    6.38376833e-01   -1.19768542e-02    7.23693053e-01
71       1.11841405e-10    7.00000000e-01    6.43372130e-01    2.72579701e-02    7.38179183e-01
72       1.12074463e-10    7.00000000e-01    6.48291985e-01    7.30817440e-02    7.52070195e-01
73       1.12307520e-10    7.00000000e-01    6.53369258e-01    1.26614019e-01    7.65185824e-01
74       1.12540578e-10    7.00000000e-01    6.58338645e-01    1.85785048e-01    7.78008255e-01
75       1.12773636e-10    7.00000000e-01    6.62992942e-01    2.48732205e-01    7.91449896e-01
76       1.13006694e-10    7.00000000e-01    6.67205395e-01    3.13462812e-01    8.04760433e-01
77       1.13472809e-10    7.00000000e-01    6.73999679e-01    4.39666311e-01    8.16827746e-01
78       1.13536694e-10    7.00000000e-01    6.74734388e-01    4.56051306e-01    8.15479154e-01
79       1.13600578e-10    7.00000000e-01    6.75445947e-01    4.72199397e-01    8.13454888e-01
80       1.13728347e-10    7.00000000e-01    6.76717300e-01    5.02699861e-01    8.04755809e-01
81       1.13856116e-10    7.00000000e-01    6.77766288e-01    5.30268861e-01    7.88431618e-01
82       1.13983884e-10    7.00000000e-01    6.78575054e-01    5.54239108e-01    7.62900941e-01
83       1.14111653e-10    7.00000000e-01    6.79140778e-01    5.74226338e-01    7.28131252e-01
84       1.14239422e-10    7.00000000e-01    6.79488151e-01    5.90404264e-01    6.85394229e-01
85       1.14367191e-10    7.00000000e-01    6.79672615e-01    6.03307069e-01    6.36248234e-01
86       1.14494959e-10    7.00000000e-01    6.79762343e-01    6.13592037e-01    5.82192944e-01
87       1.14622728e-10    7.00000000e-01    6.79820356e-01    6.21864312e-01    5.24517095e-01
88       1.14878266e-10    7.00000000e-01    6.80022910e-01    6.34407532e-01    4.02716510e-01
89       1.15133803e-10    7.00000000e-01    6.80466168e-01    6.43594833e-01    2.78409377e-01
90       1.15389341e-10    7.00000000e-01    6.81226026e-01    6.51687191e-01    1.67377197e-01
91       1.15644879e-10    7.00000000e-01    6.82304246e-01    6.60410355e-01    9.16746980e-02
92       1.15859782e-10    7.00000000e-01    6.83380760e-01    6.67980653e-01    5.70205243e-02
93       1.16074684e-10    7.00000000e-01    6.84468211e-01    6.74477901e-01    3.70294084e-02
94       1.16289587e-10    7.00000000e-01    6.85485284e-01    6.79599352e-01    2.49314535e-02
95       1.16719393e-10    7.00000000e-01    6.87335613e-01    6.86637718e-01    1.18213528e-02
96       1.17149199e-10    7.00000000e-01    6.89021770e-01    6.90803186e-01    6.17297569e-03
97       1.17579005e-10    7.00000000e-01    6.90588949e-01    6.93438151e-01    3.51763508e-03
98       1.18438616e-10    7.00000000e-01    6.93300892e-01    6.96501340e-01    1.30335603e-03
99       1.19298228e-10    7.00000000e-01    6.95393605e-01    6.98016570e-01    6.57041546e-04
100      1.20157840e-10    7.00000000e-01    6.96900516e-01    6.98837003e-01    3.56739221e-04
101      1.21877063e-10    7.00000000e-01    6.98686219e-01    6.99615214e-01    1.09094906e-04
102      1.23596286e-10    7.00000000e-01    6.99460914e-01    6.99858182e-01    3.55225491e-05
103      1.27034733e-10    7.00000000e-01    6.99952700e-01    6.99992865e-01    4.66341168e-06
104      1.30473179e-10    7.00000000e-01    6.99994682e-01    6.99995627e-01   -4.38871082e-07
105      1.37350072e-10    7.00000000e-01    6.99998852e-01    6.99999793e-01    3.33744709e-06
106      1.44226965e-10    7.00000000e-01    6.99997870e-01    6.99996479e-01   -6.61206908e-07
107      1.57980751e-10    7.00000000e-01    6.99998105e-01    6.99999563e-01    3.39615331e-06
108      1.85488323e-10    7.00000000e-01    6.99998000e-01    6.99996528e-01   -6.72075904e-07
109      2.15488323e-10    7.00000000e-01    6.99998055e-01    6.99999541e-01    3.40007137e-06
110      2.45488323e-10    7.00000000e-01    6.99998036e-01    6.99996545e-01   -6.74515820e-07
111      2.75488323e-10    7.00000000e-01    6.99998028e-01    6.99999527e-01    3.40150490e-06
112      3.00000000e-10    7.00000000e-01    6.99998057e-01    6.99996557e-01   -6.75115225e-07
End of Xyce(TM) Simulation
