Index       TIME              V(IN)            V(OUT1)           V(OUT)             V(N3)      
0        0.00000000e+00    0.00000000e+00    1.36822324e-06    1.36822325e-06    6.99998042e-01
1        5.00000000e-13    0.00000000e+00    1.36822324e-06    1.36822325e-06    6.99998042e-01
2        1.50000000e-12    0.00000000e+00    1.36822324e-06    1.36822325e-06    6.99998042e-01
3        3.50000000e-12    0.00000000e+00    1.36822323e-06    1.36822325e-06    6.99998042e-01
4        7.50000000e-12    0.00000000e+00    1.36822328e-06    1.36822324e-06    6.99998042e-01
5        1.55000000e-11    0.00000000e+00    1.36822320e-06    1.36822325e-06    6.99998042e-01
6        2.55000000e-11    0.00000000e+00    1.36822330e-06    1.36822325e-06    6.99998042e-01
7        3.55000000e-11    0.00000000e+00    1.36822317e-06    1.36822324e-06    6.99998042e-01
8        4.55000000e-11    0.00000000e+00    1.36822332e-06    1.36822325e-06    6.99998042e-01
9        5.55000000e-11    0.00000000e+00    1.36822317e-06    1.36822324e-06    6.99998042e-01
10       6.55000000e-11    0.00000000e+00    1.36822332e-06    1.36822325e-06    6.99998042e-01
11       7.55000000e-11    0.00000000e+00    1.36822317e-06    1.36822324e-06    6.99998042e-01
12       8.55000000e-11    0.00000000e+00    1.36822329e-06    1.36822325e-06    6.99998042e-01
13       9.55000000e-11    0.00000000e+00    1.36822321e-06    1.36822324e-06    6.99998042e-01
14       1.00000000e-10    0.00000000e+00    1.36822327e-06    1.36822325e-06    6.99998042e-01
15       1.00031129e-10    2.17902191e-02    1.60084340e-03    2.19423689e-05    7.00005547e-01
16       1.00056864e-10    3.98045343e-02    3.25573407e-03    4.42251016e-05    7.00015395e-01
17       1.00082598e-10    5.78188495e-02    5.01324669e-03    6.80614325e-05    7.00026729e-01
18       1.00134068e-10    9.38474800e-02    8.69951927e-03    1.15615365e-04    7.00053641e-01
19       1.00237007e-10    1.65904741e-01    1.52045170e-02    1.76747999e-04    7.00094328e-01
20       1.00339946e-10    2.37962002e-01    2.03785839e-02    1.97185174e-04    7.00103125e-01
21       1.00545824e-10    3.82076523e-01    2.81389243e-02    1.96196950e-04    7.00072405e-01
22       1.00751701e-10    5.26191045e-01    3.21405538e-02    1.60869477e-04    7.00024475e-01
23       1.00957579e-10    6.70305567e-01    2.96032215e-02    7.08102967e-05    6.99963072e-01
24       1.01000000e-10    7.00000000e-01    2.80541870e-02    4.41637242e-05    6.99947589e-01
25       1.01018529e-10    7.00000000e-01    2.64435325e-02    2.20886611e-05    6.99937661e-01
26       1.01035178e-10    7.00000000e-01    2.47265587e-02   -1.49167140e-06    6.99926808e-01
27       1.01051827e-10    7.00000000e-01    2.29007551e-02   -2.66239158e-05    6.99915039e-01
28       1.01085126e-10    7.00000000e-01    1.88583724e-02   -8.15759809e-05    6.99887398e-01
29       1.01151722e-10    7.00000000e-01    1.06104749e-02   -1.81478694e-04    6.99830794e-01
30       1.01218319e-10    7.00000000e-01    2.96069704e-03   -2.51484554e-04    6.99789541e-01
31       1.01351513e-10    7.00000000e-01   -1.01978307e-02   -3.22998405e-04    6.99769380e-01
32       1.01484706e-10    7.00000000e-01   -2.09851980e-02   -3.44923499e-04    6.99800990e-01
33       1.01751093e-10    7.00000000e-01   -3.73722723e-02   -3.36238003e-04    6.99890862e-01
34       1.02283866e-10    7.00000000e-01   -5.76370771e-02   -2.66629307e-04    7.00007497e-01
35       1.02816640e-10    7.00000000e-01   -6.85885701e-02   -1.94564295e-04    7.00038588e-01
36       1.03349414e-10    7.00000000e-01   -7.03427831e-02   -8.98613442e-05    7.00059464e-01
37       1.03882187e-10    7.00000000e-01   -4.83350318e-02    1.64463214e-04    7.00135536e-01
38       1.04309617e-10    7.00000000e-01   -7.33439541e-03    4.48566114e-04    7.00203431e-01
39       1.04690201e-10    7.00000000e-01    4.43003205e-02    6.84379600e-04    7.00219237e-01
40       1.05070784e-10    7.00000000e-01    1.05545095e-01    8.84000985e-04    7.00203947e-01
41       1.05451368e-10    7.00000000e-01    1.72278225e-01    1.06332754e-03    7.00184318e-01
42       1.05831952e-10    7.00000000e-01    2.41480764e-01    1.22870194e-03    7.00168620e-01
43       1.06593119e-10    7.00000000e-01    3.74625353e-01    1.30285237e-03    7.00054757e-01
44       1.07278170e-10    7.00000000e-01    4.79453422e-01    6.94700703e-04    6.99748157e-01
45       1.07872422e-10    7.00000000e-01    5.48660599e-01   -6.03433211e-04    6.99334228e-01
46       1.08365313e-10    7.00000000e-01    5.86318740e-01   -2.02697004e-03    6.99058768e-01
47       1.08808915e-10    7.00000000e-01    6.07738990e-01   -3.36376254e-03    6.98949002e-01
48       1.09252517e-10    7.00000000e-01    6.21225528e-01   -4.64722187e-03    6.98936911e-01
49       1.09696119e-10    7.00000000e-01    6.29959602e-01   -5.83063467e-03    6.98986897e-01
50       1.10583322e-10    7.00000000e-01    6.42067080e-01   -6.30944975e-03    6.99733312e-01
51       1.11372230e-10    7.00000000e-01    6.49847950e-01   -2.94473747e-03    7.01348997e-01
52       1.12082247e-10    7.00000000e-01    6.58576506e-01    3.37768555e-03    7.02981338e-01
53       1.12653234e-10    7.00000000e-01    6.66901085e-01    1.00404038e-02    7.03953020e-01
54       1.13224222e-10    7.00000000e-01    6.74850508e-01    1.74728242e-02    7.04558238e-01
55       1.13795210e-10    7.00000000e-01    6.81603601e-01    2.53742663e-02    7.04914767e-01
56       1.14366198e-10    7.00000000e-01    6.86795545e-01    3.35636049e-02    7.05132470e-01
57       1.15508174e-10    7.00000000e-01    6.93558177e-01    5.04151944e-02    7.05365243e-01
58       1.16650149e-10    7.00000000e-01    6.96924882e-01    6.76115374e-02    7.05486826e-01
59       1.17792125e-10    7.00000000e-01    6.98548447e-01    8.49256701e-02    7.05578580e-01
60       1.20076076e-10    7.00000000e-01    6.99743005e-01    1.19530321e-01    7.05747330e-01
61       1.22360028e-10    7.00000000e-01    6.99956508e-01    1.53887919e-01    7.05846236e-01
62       1.26927930e-10    7.00000000e-01    6.99987062e-01    2.20865707e-01    7.04654385e-01
63       1.27712405e-10    7.00000000e-01    6.99984854e-01    2.31907073e-01    7.03946673e-01
64       1.28496879e-10    7.00000000e-01    6.99976145e-01    2.42792023e-01    7.02995799e-01
65       1.30065827e-10    7.00000000e-01    6.99961275e-01    2.63734757e-01    6.99817790e-01
66       1.31634776e-10    7.00000000e-01    6.99952811e-01    2.83463919e-01    6.94675069e-01
67       1.33203724e-10    7.00000000e-01    6.99942146e-01    3.01736072e-01    6.86890870e-01
68       1.34772673e-10    7.00000000e-01    6.99932718e-01    3.18313400e-01    6.75648917e-01
69       1.36341621e-10    7.00000000e-01    6.99916138e-01    3.32760571e-01    6.59467826e-01
70       1.37910570e-10    7.00000000e-01    6.99890470e-01    3.44372632e-01    6.35945343e-01
71       1.39322624e-10    7.00000000e-01    6.99867962e-01    3.51932280e-01    6.06854562e-01
72       1.40593472e-10    7.00000000e-01    6.99870035e-01    3.56617128e-01    5.74866604e-01
73       1.41864320e-10    7.00000000e-01    6.99898462e-01    3.60061447e-01    5.39561467e-01
74       1.44406017e-10    7.00000000e-01    6.99961093e-01    3.65525631e-01    4.65362047e-01
75       1.46693544e-10    7.00000000e-01    6.99989306e-01    3.69883168e-01    3.97402033e-01
76       1.51268597e-10    7.00000000e-01    6.99999780e-01    3.78495679e-01    2.61771529e-01
77       1.55843651e-10    7.00000000e-01    7.00008999e-01    3.88282954e-01    1.29493065e-01
78       1.57241197e-10    7.00000000e-01    7.00029119e-01    3.92923670e-01    9.41496501e-02
79       1.57847750e-10    7.00000000e-01    7.00049580e-01    3.95491019e-01    8.05385451e-02
80       1.58454303e-10    7.00000000e-01    7.00080315e-01    3.98468674e-01    6.82018643e-02
81       1.59667408e-10    7.00000000e-01    7.00138860e-01    4.06528373e-01    4.95978794e-02
82       1.60759204e-10    7.00000000e-01    7.00139754e-01    4.15471505e-01    3.77787824e-02
83       1.61850999e-10    7.00000000e-01    7.00113637e-01    4.25393187e-01    2.89727354e-02
84       1.62942794e-10    7.00000000e-01    7.00087413e-01    4.35983886e-01    2.23561942e-02
85       1.64034590e-10    7.00000000e-01    7.00064070e-01    4.47008855e-01    1.73773561e-02
86       1.65126385e-10    7.00000000e-01    7.00045506e-01    4.58298008e-01    1.36497315e-02
87       1.67309975e-10    7.00000000e-01    7.00016955e-01    4.81070921e-01    8.82590531e-03
88       1.71677157e-10    7.00000000e-01    6.99978983e-01    5.24391421e-01    4.75597825e-03
89       1.76044338e-10    7.00000000e-01    6.99956411e-01    5.61492116e-01    3.34511375e-03
90       1.80411519e-10    7.00000000e-01    6.99960686e-01    5.91400860e-01    2.51029883e-03
91       1.84778700e-10    7.00000000e-01    6.99964611e-01    6.15014691e-01    1.97746960e-03
92       1.89145881e-10    7.00000000e-01    6.99971207e-01    6.33471079e-01    1.52937909e-03
93       1.93513062e-10    7.00000000e-01    6.99977409e-01    6.47898753e-01    1.21675318e-03
94       1.97880243e-10    7.00000000e-01    6.99981080e-01    6.59151743e-01    9.42716562e-04
95       2.02247424e-10    7.00000000e-01    6.99985491e-01    6.67958904e-01    7.52014599e-04
96       2.06614606e-10    7.00000000e-01    6.99987396e-01    6.74841145e-01    5.82431402e-04
97       2.10981787e-10    7.00000000e-01    6.99990359e-01    6.80240011e-01    4.65651238e-04
98       2.19716149e-10    7.00000000e-01    6.99992802e-01    6.87872332e-01    2.81306567e-04
99       2.37184873e-10    7.00000000e-01    6.99996730e-01    6.95706877e-01    1.05140486e-04
100      2.54653598e-10    7.00000000e-01    6.99997297e-01    6.98473161e-01    3.40777227e-05
101      2.72122322e-10    7.00000000e-01    6.99998326e-01    6.99458337e-01    1.71828050e-05
102      2.89591047e-10    7.00000000e-01    6.99997887e-01    6.99804575e-01    3.29047220e-06
103      3.00000000e-10    7.00000000e-01    6.99998484e-01    6.99891960e-01    6.66095231e-06
End of Xyce(TM) Simulation
